Freq.	V(N002,N011)
1.00000000000000e-06	(-6.02059991418310e+00dB,-5.40540000214677e-04°)
1.02329299228075e-06	(-6.02059991422568e+00dB,-5.53130794277469e-04°)
1.04712854805090e-06	(-6.02059991427026e+00dB,-5.66014865609915e-04°)
1.07151930523761e-06	(-6.02059991431695e+00dB,-5.79199045517246e-04°)
1.09647819614318e-06	(-6.02059991436584e+00dB,-5.92690324426236e-04°)
1.12201845430196e-06	(-6.02059991441703e+00dB,-6.06495855591622e-04°)
1.14815362149688e-06	(-6.02059991447063e+00dB,-6.20622958888851e-04°)
1.17489755493953e-06	(-6.02059991452676e+00dB,-6.35079124695178e-04°)
1.20226443461741e-06	(-6.02059991458554e+00dB,-6.49872017861161e-04°)
1.23026877081238e-06	(-6.02059991464708e+00dB,-6.65009481774671e-04°)
1.25892541179417e-06	(-6.02059991471153e+00dB,-6.80499542519555e-04°)
1.28824955169313e-06	(-6.02059991477901e+00dB,-6.96350413131177e-04°)
1.31825673855641e-06	(-6.02059991484968e+00dB,-7.12570497951076e-04°)
1.34896288259165e-06	(-6.02059991492367e+00dB,-7.29168397083061e-04°)
1.38038426460288e-06	(-6.02059991500115e+00dB,-7.46152910953100e-04°)
1.41253754462275e-06	(-6.02059991508229e+00dB,-7.63533044975424e-04°)
1.44543977074593e-06	(-6.02059991516724e+00dB,-7.81318014327316e-04°)
1.47910838816821e-06	(-6.02059991525620e+00dB,-7.99517248835122e-04°)
1.51356124843621e-06	(-6.02059991534936e+00dB,-8.18140397974070e-04°)
1.54881661891248e-06	(-6.02059991544690e+00dB,-8.37197335984551e-04°)
1.58489319246111e-06	(-6.02059991554904e+00dB,-8.56698167107573e-04°)
1.62181009735893e-06	(-6.02059991565600e+00dB,-8.76653230942162e-04°)
1.65958690743756e-06	(-6.02059991576799e+00dB,-8.97073107927560e-04°)
1.69824365246174e-06	(-6.02059991588526e+00dB,-9.17968624953111e-04°)
1.73780082874937e-06	(-6.02059991600806e+00dB,-9.39350861098825e-04°)
1.77827941003892e-06	(-6.02059991613665e+00dB,-9.61231153509654e-04°)
1.81970085860998e-06	(-6.02059991627130e+00dB,-9.83621103406594e-04°)
1.86208713666287e-06	(-6.02059991641229e+00dB,-1.00653258223781e-03°)
1.90546071796325e-06	(-6.02059991655993e+00dB,-1.02997773797305e-03°)
1.94984459975804e-06	(-6.02059991671453e+00dB,-1.05396900154463e-03°)
1.99526231496888e-06	(-6.02059991687641e+00dB,-1.07851909343851e-03°)
2.04173794466953e-06	(-6.02059991704592e+00dB,-1.10364103043886e-03°)
2.08929613085404e-06	(-6.02059991722342e+00dB,-1.12934813252971e-03°)
2.13796208950223e-06	(-6.02059991740929e+00dB,-1.15565402995744e-03°)
2.18776162394955e-06	(-6.02059991760391e+00dB,-1.18257267045763e-03°)
2.23872113856834e-06	(-6.02059991780771e+00dB,-1.21011832665044e-03°)
2.29086765276777e-06	(-6.02059991802111e+00dB,-1.23830560360807e-03°)
2.34422881531992e-06	(-6.02059991824457e+00dB,-1.26714944659860e-03°)
2.39883291901949e-06	(-6.02059991847856e+00dB,-1.29666514901016e-03°)
2.45470891568503e-06	(-6.02059991872358e+00dB,-1.32686836045968e-03°)
2.51188643150958e-06	(-6.02059991898014e+00dB,-1.35777509509058e-03°)
2.57039578276886e-06	(-6.02059991924880e+00dB,-1.38940174006361e-03°)
2.63026799189538e-06	(-6.02059991953012e+00dB,-1.42176506424560e-03°)
2.69153480392691e-06	(-6.02059991982470e+00dB,-1.45488222710051e-03°)
2.75422870333816e-06	(-6.02059992013316e+00dB,-1.48877078778764e-03°)
2.81838293126445e-06	(-6.02059992045615e+00dB,-1.52344871447170e-03°)
2.88403150312660e-06	(-6.02059992079437e+00dB,-1.55893439384979e-03°)
2.95120922666638e-06	(-6.02059992114853e+00dB,-1.59524664090028e-03°)
3.01995172040201e-06	(-6.02059992151938e+00dB,-1.63240470885879e-03°)
3.09029543251359e-06	(-6.02059992190771e+00dB,-1.67042829942645e-03°)
3.16227766016837e-06	(-6.02059992231434e+00dB,-1.70933757321608e-03°)
3.23593656929628e-06	(-6.02059992274013e+00dB,-1.74915316044160e-03°)
3.31131121482591e-06	(-6.02059992318599e+00dB,-1.78989617185643e-03°)
3.38844156139202e-06	(-6.02059992365286e+00dB,-1.83158820994673e-03°)
3.46736850452531e-06	(-6.02059992414174e+00dB,-1.87425138038532e-03°)
3.54813389233575e-06	(-6.02059992465366e+00dB,-1.91790830375242e-03°)
3.63078054770101e-06	(-6.02059992518969e+00dB,-1.96258212752937e-03°)
3.71535229097172e-06	(-6.02059992575100e+00dB,-2.00829653837179e-03°)
3.80189396320561e-06	(-6.02059992633876e+00dB,-2.05507577466851e-03°)
3.89045144994280e-06	(-6.02059992695422e+00dB,-2.10294463939318e-03°)
3.98107170553496e-06	(-6.02059992759868e+00dB,-2.15192851325505e-03°)
4.07380277804112e-06	(-6.02059992827352e+00dB,-2.20205336815627e-03°)
4.16869383470335e-06	(-6.02059992898016e+00dB,-2.25334578096249e-03°)
4.26579518801592e-06	(-6.02059992972010e+00dB,-2.30583294759433e-03°)
4.36515832240165e-06	(-6.02059993049492e+00dB,-2.35954269744701e-03°)
4.46683592150962e-06	(-6.02059993130625e+00dB,-2.41450350814588e-03°)
4.57088189614874e-06	(-6.02059993215582e+00dB,-2.47074452064570e-03°)
4.67735141287197e-06	(-6.02059993304542e+00dB,-2.52829555468152e-03°)
4.78630092322637e-06	(-6.02059993397696e+00dB,-2.58718712457960e-03°)
4.89778819368445e-06	(-6.02059993495239e+00dB,-2.64745045543649e-03°)
5.01187233627271e-06	(-6.02059993597380e+00dB,-2.70911749967503e-03°)
5.12861383991364e-06	(-6.02059993704334e+00dB,-2.77222095398599e-03°)
5.24807460249771e-06	(-6.02059993816329e+00dB,-2.83679427666432e-03°)
5.37031796370251e-06	(-6.02059993933602e+00dB,-2.90287170534923e-03°)
5.49540873857623e-06	(-6.02059994056402e+00dB,-2.97048827517744e-03°)
5.62341325190348e-06	(-6.02059994184990e+00dB,-3.03967983735940e-03°)
5.75439937337155e-06	(-6.02059994319637e+00dB,-3.11048307818804e-03°)
5.88843655355587e-06	(-6.02059994460631e+00dB,-3.18293553849043e-03°)
6.02559586074356e-06	(-6.02059994608269e+00dB,-3.25707563353245e-03°)
6.16595001861481e-06	(-6.02059994762865e+00dB,-3.33294267338715e-03°)
6.30957344480192e-06	(-6.02059994924747e+00dB,-3.41057688377755e-03°)
6.45654229034654e-06	(-6.02059995094258e+00dB,-3.49001942740487e-03°)
6.60693448007594e-06	(-6.02059995271758e+00dB,-3.57131242577366e-03°)
6.76082975391980e-06	(-6.02059995457624e+00dB,-3.65449898152522e-03°)
6.91830970918935e-06	(-6.02059995652249e+00dB,-3.73962320129131e-03°)
7.07945784384136e-06	(-6.02059995856046e+00dB,-3.82673021908014e-03°)
7.24435960074988e-06	(-6.02059996069448e+00dB,-3.91586622020711e-03°)
7.41310241300916e-06	(-6.02059996292907e+00dB,-4.00707846578298e-03°)
7.58577575029182e-06	(-6.02059996526898e+00dB,-4.10041531777247e-03°)
7.76247116628690e-06	(-6.02059996771916e+00dB,-4.19592626463651e-03°)
7.94328234724279e-06	(-6.02059997028482e+00dB,-4.29366194757179e-03°)
8.12830516164097e-06	(-6.02059997297139e+00dB,-4.39367418736157e-03°)
8.31763771102669e-06	(-6.02059997578458e+00dB,-4.49601601185185e-03°)
8.51138038202374e-06	(-6.02059997873035e+00dB,-4.60074168406763e-03°)
8.70963589956078e-06	(-6.02059998181494e+00dB,-4.70790673098400e-03°)
8.91250938133743e-06	(-6.02059998504491e+00dB,-4.81756797296753e-03°)
9.12010839355907e-06	(-6.02059998842711e+00dB,-4.92978355390327e-03°)
9.33254300796988e-06	(-6.02059999196870e+00dB,-5.04461297202373e-03°)
9.54992586021433e-06	(-6.02059999567720e+00dB,-5.16211711145575e-03°)
9.77237220955808e-06	(-6.02059999956048e+00dB,-5.28235827450238e-03°)
9.99999999999997e-06	(-6.02060000362677e+00dB,-5.40540021467658e-03°)
1.02329299228075e-05	(-6.02060000788470e+00dB,-5.53130817050449e-03°)
1.04712854805090e-05	(-6.02060001234330e+00dB,-5.66014890011602e-03°)
1.07151930523760e-05	(-6.02060001701203e+00dB,-5.79199071664125e-03°)
1.09647819614318e-05	(-6.02060002190079e+00dB,-5.92690352443122e-03°)
1.12201845430196e-05	(-6.02060002701995e+00dB,-6.06495885612256e-03°)
1.14815362149688e-05	(-6.02060003238037e+00dB,-6.20622991056540e-03°)
1.17489755493953e-05	(-6.02060003799341e+00dB,-6.35079159163478e-03°)
1.20226443461741e-05	(-6.02060004387099e+00dB,-6.49872054794611e-03°)
1.23026877081238e-05	(-6.02060005002558e+00dB,-6.65009521349575e-03°)
1.25892541179416e-05	(-6.02060005647022e+00dB,-6.80499584924829e-03°)
1.28824955169313e-05	(-6.02060006321858e+00dB,-6.96350458569247e-03°)
1.31825673855640e-05	(-6.02060007028499e+00dB,-7.12570546638845e-03°)
1.34896288259165e-05	(-6.02060007768443e+00dB,-7.29168449252945e-03°)
1.38038426460288e-05	(-6.02060008543259e+00dB,-7.46152966854139e-03°)
1.41253754462275e-05	(-6.02060009354591e+00dB,-7.63533104874467e-03°)
1.44543977074592e-05	(-6.02060010204160e+00dB,-7.81318078510297e-03°)
1.47910838816820e-05	(-6.02060011093768e+00dB,-7.99517317608425e-03°)
1.51356124843620e-05	(-6.02060012025303e+00dB,-8.18140471665992e-03°)
1.54881661891248e-05	(-6.02060013000738e+00dB,-8.37197414946868e-03°)
1.58489319246111e-05	(-6.02060014022145e+00dB,-8.56698251717220e-03°)
1.62181009735892e-05	(-6.02060015091690e+00dB,-8.76653321603032e-03°)
1.65958690743755e-05	(-6.02060016211640e+00dB,-8.97073205072433e-03°)
1.69824365246174e-05	(-6.02060017384372e+00dB,-9.17968729045718e-03°)
1.73780082874937e-05	(-6.02060018612374e+00dB,-9.39350972636064e-03°)
1.77827941003892e-05	(-6.02060019898249e+00dB,-9.61231273023959e-03°)
1.81970085860998e-05	(-6.02060021244726e+00dB,-9.83621231468479e-03°)
1.86208713666286e-05	(-6.02060022654660e+00dB,-1.00653271945860e-02°)
1.90546071796324e-05	(-6.02060024131043e+00dB,-1.02997788500777e-02°)
1.94984459975804e-05	(-6.02060025677005e+00dB,-1.05396915909517e-02°)
1.99526231496887e-05	(-6.02060027295827e+00dB,-1.07851926225696e-02°)
2.04173794466952e-05	(-6.02060028990941e+00dB,-1.10364121133108e-02°)
2.08929613085403e-05	(-6.02060030765943e+00dB,-1.12934832635922e-02°)
2.13796208950222e-05	(-6.02060032624600e+00dB,-1.15565423764950e-02°)
2.18776162394954e-05	(-6.02060034570851e+00dB,-1.18257289300368e-02°)
2.23872113856833e-05	(-6.02060036608828e+00dB,-1.21011856511283e-02°)
2.29086765276776e-05	(-6.02060038742851e+00dB,-1.23830585912513e-02°)
2.34422881531991e-05	(-6.02060040977447e+00dB,-1.26714972039006e-02°)
2.39883291901948e-05	(-6.02060043317358e+00dB,-1.29666544238299e-02°)
2.45470891568502e-05	(-6.02060045767545e+00dB,-1.32686867481435e-02°)
2.51188643150957e-05	(-6.02060048333206e+00dB,-1.35777543192767e-02°)
2.57039578276885e-05	(-6.02060051019783e+00dB,-1.38940210099106e-02°)
2.63026799189537e-05	(-6.02060053832975e+00dB,-1.42176545098633e-02°)
2.69153480392690e-05	(-6.02060056778748e+00dB,-1.45488264150067e-02°)
2.75422870333815e-05	(-6.02060059863352e+00dB,-1.48877123182541e-02°)
2.81838293126444e-05	(-6.02060063093330e+00dB,-1.52344919026674e-02°)
2.88403150312659e-05	(-6.02060066475532e+00dB,-1.55893490367336e-02°)
2.95120922666637e-05	(-6.02060070017132e+00dB,-1.59524718718609e-02°)
3.01995172040200e-05	(-6.02060073725644e+00dB,-1.63240529421458e-02°)
3.09029543251358e-05	(-6.02060077608932e+00dB,-1.67042892664648e-02°)
3.16227766016836e-05	(-6.02060081675235e+00dB,-1.70933824529446e-02°)
3.23593656929627e-05	(-6.02060085933178e+00dB,-1.74915388058656e-02°)
3.31131121482589e-05	(-6.02060090391792e+00dB,-1.78989694350566e-02°)
3.38844156139201e-05	(-6.02060095060535e+00dB,-1.83158903678378e-02°)
3.46736850452530e-05	(-6.02060099949309e+00dB,-1.87425226635718e-02°)
3.54813389233574e-05	(-6.02060105068485e+00dB,-1.91790925308837e-02°)
3.63078054770100e-05	(-6.02060110428922e+00dB,-1.96258314476118e-02°)
3.71535229097171e-05	(-6.02060116041989e+00dB,-2.00829762835531e-02°)
3.80189396320559e-05	(-6.02060121919593e+00dB,-2.05507694260691e-02°)
3.89045144994279e-05	(-6.02060128074201e+00dB,-2.10294589086172e-02°)
3.98107170553495e-05	(-6.02060134518869e+00dB,-2.15192985422776e-02°)
4.07380277804111e-05	(-6.02060141267265e+00dB,-2.20205480503443e-02°)
4.16869383470333e-05	(-6.02060148333706e+00dB,-2.25334732060519e-02°)
4.26579518801590e-05	(-6.02060155733179e+00dB,-2.30583459735122e-02°)
4.36515832240164e-05	(-6.02060163481381e+00dB,-2.35954446519338e-02°)
4.46683592150961e-05	(-6.02060171594746e+00dB,-2.41450540232026e-02°)
4.57088189614873e-05	(-6.02060180090485e+00dB,-2.47074655029012e-02°)
4.67735141287196e-05	(-6.02060188986619e+00dB,-2.52829772948472e-02°)
4.78630092322636e-05	(-6.02060198302017e+00dB,-2.58718945492324e-02°)
4.89778819368444e-05	(-6.02060208056440e+00dB,-2.64745295244471e-02°)
5.01187233627270e-05	(-6.02060218270577e+00dB,-2.70912017526756e-02°)
5.12861383991362e-05	(-6.02060228966096e+00dB,-2.77222382093507e-02°)
5.24807460249770e-05	(-6.02060240165684e+00dB,-2.83679734865563e-02°)
5.37031796370250e-05	(-6.02060251893096e+00dB,-2.90287499704725e-02°)
5.49540873857622e-05	(-6.02060264173209e+00dB,-2.97049180229547e-02°)
5.62341325190346e-05	(-6.02060277032072e+00dB,-3.03968361673450e-02°)
5.75439937337154e-05	(-6.02060290496960e+00dB,-3.11048712786147e-02°)
5.88843655355586e-05	(-6.02060304596435e+00dB,-3.18293987779374e-02°)
6.02559586074354e-05	(-6.02060319360406e+00dB,-3.25708028317978e-02°)
6.16595001861479e-05	(-6.02060334820188e+00dB,-3.33294765557410e-02°)
6.30957344480190e-05	(-6.02060351008577e+00dB,-3.41058222228712e-02°)
6.45654229034652e-05	(-6.02060367959910e+00dB,-3.49002514772102e-02°)
6.60693448007592e-05	(-6.02060385710146e+00dB,-3.57131855520294e-02°)
6.76082975391978e-05	(-6.02060404296936e+00dB,-3.65450554932713e-02°)
6.91830970918932e-05	(-6.02060423759706e+00dB,-3.73963023881797e-02°)
7.07945784384134e-05	(-6.02060444139743e+00dB,-3.82673775992596e-02°)
7.24435960074986e-05	(-6.02060465480276e+00dB,-3.91587430036913e-02°)
7.41310241300913e-05	(-6.02060487826574e+00dB,-4.00708712383274e-02°)
7.58577575029179e-05	(-6.02060511226039e+00dB,-4.10042459504013e-02°)
7.76247116628687e-05	(-6.02060535728307e+00dB,-4.19593620540812e-02°)
7.94328234724277e-05	(-6.02060561385353e+00dB,-4.29367259930072e-02°)
8.12830516164094e-05	(-6.02060588251602e+00dB,-4.39368560089502e-02°)
8.31763771102666e-05	(-6.02060616384044e+00dB,-4.49602824167359e-02°)
8.51138038202371e-05	(-6.02060645842356e+00dB,-4.60075478855806e-02°)
8.70963589956075e-05	(-6.02060676689028e+00dB,-4.70792077269887e-02°)
8.91250938133740e-05	(-6.02060708989493e+00dB,-4.81758301893650e-02°)
9.12010839355904e-05	(-6.02060742812269e+00dB,-4.92979967594998e-02°)
9.33254300796985e-05	(-6.02060778229106e+00dB,-5.04463024710855e-02°)
9.54992586021430e-05	(-6.02060815315132e+00dB,-5.16213562204324e-02°)
9.77237220955804e-05	(-6.02060854149019e+00dB,-5.28237810895490e-02°)
9.99999999999994e-05	(-6.02060894813145e+00dB,-5.40542146767612e-02°)
1.02329299228075e-04	(-6.02060937393773e+00dB,-5.53133094350464e-02°)
1.04712854805089e-04	(-6.02060981981229e+00dB,-5.66017330182628e-02°)
1.07151930523760e-04	(-6.02061028670100e+00dB,-5.79201686354594e-02°)
1.09647819614318e-04	(-6.02061077559429e+00dB,-5.92693154134557e-02°)
1.12201845430196e-04	(-6.02061128752928e+00dB,-6.06498887678851e-02°)
1.14815362149688e-04	(-6.02061182359197e+00dB,-6.20626207829003e-02°)
1.17489755493952e-04	(-6.02061238491957e+00dB,-6.35082605997442e-02°)
1.20226443461741e-04	(-6.02061297270286e+00dB,-6.49875748143935e-02°)
1.23026877081237e-04	(-6.02061358818878e+00dB,-6.65013478844890e-02°)
1.25892541179416e-04	(-6.02061423268304e+00dB,-6.80503825457699e-02°)
1.28824955169313e-04	(-6.02061490755288e+00dB,-6.96355002382350e-02°)
1.31825673855640e-04	(-6.02061561423001e+00dB,-7.12575415422606e-02°)
1.34896288259164e-04	(-6.02061635421363e+00dB,-7.29173666249076e-02°)
1.38038426460288e-04	(-6.02061712907358e+00dB,-7.46158556966588e-02°)
1.41253754462274e-04	(-6.02061794045375e+00dB,-7.63539094788300e-02°)
1.44543977074592e-04	(-6.02061879007547e+00dB,-7.81324496819083e-02°)
1.47910838816820e-04	(-6.02061967974126e+00dB,-7.99524194950732e-02°)
1.51356124843620e-04	(-6.02062061133857e+00dB,-8.18147840871645e-02°)
1.54881661891247e-04	(-6.02062158684387e+00dB,-8.37205311193663e-02°)
1.58489319246110e-04	(-6.02062260832677e+00dB,-8.56706712698856e-02°)
1.62181009735892e-04	(-6.02062367795448e+00dB,-8.76662387709046e-02°)
1.65958690743755e-04	(-6.02062479799633e+00dB,-8.97082919581003e-02°)
1.69824365246173e-04	(-6.02062597082869e+00dB,-9.17979138330261e-02°)
1.73780082874936e-04	(-6.02062719893994e+00dB,-9.39362126386604e-02°)
1.77827941003891e-04	(-6.02062848493577e+00dB,-9.61243224484333e-02°)
1.81970085860997e-04	(-6.02062983154472e+00dB,-9.83634037690506e-02°)
1.86208713666285e-04	(-6.02063124162398e+00dB,-1.00654644157442e-01°)
1.90546071796323e-04	(-6.02063271816545e+00dB,-1.02999258852168e-01°)
1.94984459975803e-04	(-6.02063426430210e+00dB,-1.05398491419632e-01°)
1.99526231496887e-04	(-6.02063588331461e+00dB,-1.07853614415438e-01°)
2.04173794466951e-04	(-6.02063757863835e+00dB,-1.10365930061277e-01°)
2.08929613085402e-04	(-6.02063935387068e+00dB,-1.12936770937678e-01°)
2.13796208950222e-04	(-6.02064121277857e+00dB,-1.15567500693038e-01°)
2.18776162394954e-04	(-6.02064315930665e+00dB,-1.18259514769289e-01°)
2.23872113856832e-04	(-6.02064519758554e+00dB,-1.21014241144621e-01°)
2.29086765276776e-04	(-6.02064733194065e+00dB,-1.23833141093647e-01°)
2.34422881531990e-04	(-6.02064956690136e+00dB,-1.26717709965455e-01°)
2.39883291901947e-04	(-6.02065190721067e+00dB,-1.29669477979946e-01°)
2.45470891568501e-04	(-6.02065435783525e+00dB,-1.32690011042920e-01°)
2.51188643150956e-04	(-6.02065692397603e+00dB,-1.35780911580342e-01°)
2.57039578276884e-04	(-6.02065961107922e+00dB,-1.38943819392268e-01°)
2.63026799189536e-04	(-6.02066242484790e+00dB,-1.42180412526886e-01°)
2.69153480392689e-04	(-6.02066537125419e+00dB,-1.45492408175170e-01°)
2.75422870333815e-04	(-6.02066845655185e+00dB,-1.48881563586638e-01°)
2.81838293126443e-04	(-6.02067168728969e+00dB,-1.52349677006732e-01°)
2.88403150312658e-04	(-6.02067507032543e+00dB,-1.55898588636330e-01°)
2.95120922666636e-04	(-6.02067861284030e+00dB,-1.59530181613951e-01°)
3.01995172040199e-04	(-6.02068232235434e+00dB,-1.63246383021178e-01°)
3.09029543251357e-04	(-6.02068620674236e+00dB,-1.67049164911883e-01°)
3.16227766016835e-04	(-6.02069027425076e+00dB,-1.70940545365835e-01°)
3.23593656929626e-04	(-6.02069453351502e+00dB,-1.74922589567275e-01°)
3.31131121482588e-04	(-6.02069899357811e+00dB,-1.78997410909086e-01°)
3.38844156139200e-04	(-6.02070366390974e+00dB,-1.83167172123177e-01°)
3.46736850452529e-04	(-6.02070855442654e+00dB,-1.87434086437731e-01°)
3.54813389233573e-04	(-6.02071367551316e+00dB,-1.91800418761982e-01°)
3.63078054770098e-04	(-6.02071903804440e+00dB,-1.96268486899201e-01°)
3.71535229097170e-04	(-6.02072465340840e+00dB,-2.00840662788592e-01°)
3.80189396320558e-04	(-6.02073053353085e+00dB,-2.05519373776820e-01°)
3.89045144994277e-04	(-6.02073669090051e+00dB,-2.10307103919909e-01°)
3.98107170553494e-04	(-6.02074313859574e+00dB,-2.15206395316276e-01°)
4.07380277804109e-04	(-6.02074989031245e+00dB,-2.20219849471678e-01°)
4.16869383470332e-04	(-6.02075696039331e+00dB,-2.25350128696881e-01°)
4.26579518801589e-04	(-6.02076436385832e+00dB,-2.30599957538879e-01°)
4.36515832240162e-04	(-6.02077211643692e+00dB,-2.35972124246515e-01°)
4.46683592150959e-04	(-6.02078023460152e+00dB,-2.41469482271384e-01°)
4.57088189614871e-04	(-6.02078873560273e+00dB,-2.47094951804915e-01°)
4.67735141287194e-04	(-6.02079763750617e+00dB,-2.52851521352569e-01°)
4.78630092322634e-04	(-6.02080695923111e+00dB,-2.58742249346111e-01°)
4.89778819368442e-04	(-6.02081672059089e+00dB,-2.64770265794938e-01°)
5.01187233627268e-04	(-6.02082694233531e+00dB,-2.70938773977479e-01°)
5.12861383991360e-04	(-6.02083764619501e+00dB,-2.77251052173734e-01°)
5.24807460249768e-04	(-6.02084885492800e+00dB,-2.83710455440004e-01°)
5.37031796370248e-04	(-6.02086059236836e+00dB,-2.90320417426953e-01°)
5.49540873857620e-04	(-6.02087288347733e+00dB,-2.97084452242142e-01°)
5.62341325190344e-04	(-6.02088575439677e+00dB,-3.04006156358219e-01°)
5.75439937337152e-04	(-6.02089923250522e+00dB,-3.11089210568005e-01°)
5.88843655355584e-04	(-6.02091334647668e+00dB,-3.18337381987728e-01°)
6.02559586074352e-04	(-6.02092812634206e+00dB,-3.25754526109723e-01°)
6.16595001861477e-04	(-6.02094360355379e+00dB,-3.33344588905946e-01°)
6.30957344480188e-04	(-6.02095981105328e+00dB,-3.41111608983706e-01°)
6.45654229034650e-04	(-6.02097678334188e+00dB,-3.49059719795056e-01°)
6.60693448007590e-04	(-6.02099455655498e+00dB,-3.57193151901338e-01°)
6.76082975391976e-04	(-6.02101316853989e+00dB,-3.65516235294440e-01°)
6.91830970918930e-04	(-6.02103265893736e+00dB,-3.74033401776363e-01°)
